 ****** HSPICE -- C-2009.09 32-BIT (Aug 24 2009) winnt ******                   
  Copyright (C) 2009 Synopsys, Inc. All Rights Reserved.                        
  Unpublished-rights reserved under US copyright laws.
  This program is protected by law and is subject to the 
  terms and conditions of the license agreement from Synopsys.
  Use of this program is your acceptance to be bound by the 
  license agreement. HSPICE is the trademark of Synopsys, Inc.
  Input File: e:\jason\whyee\semeter\analogic\two_stage_opamp\ac_sim_template.sp
  lic:  
  lic: FLEXlm: v8.5b 
  lic: USER:   jason                HOSTNAME: DESKTOP-NP05V42 
  lic: HOSTID: "a8a159b72f8e 00155d37aea6 001a7dda7113 0a0027000009 7a8cb58aa976
  
  lic: Using FLEXlm license file: 
  lic: 27000@localhost 
  lic: Checkout 1 hspice 
  lic: License/Maintenance for hspice will expire on 31-dec-2028/2008.120 
  lic: FLOATING license(s) on SERVER localhost 
  lic:   
 Init: read install configuration file: C:\synopsys\Hspice_C-2009.09\meta.cfg
1****** HSPICE -- C-2009.09 32-BIT (Aug 24 2009) winnt ******                   
 ******  
 * fully differential operational amplifier design ****

  ******  circuit name directory
 circuit number to circuit name directory
   number circuitname                     definition         multiplier
        0 main circuit
        1 xopamp.                         opamp              1.00 
 

 

 **warning** the following singular supplies were terminated to 1 meg resistor 
   supply       node1            node2
  eout                    0:out              defined in subckt 0                     0:0                defined in subckt 0               
      
 *****************************************************************
 ******  option summary
 ******
 runlvl  = 6         bypass  = 2         
  Opening plot unit= 79
 file=e:\jason\whyee\semeter\analogic\two_stage_opamp\ac_sim_template.pa0      

1****** HSPICE -- C-2009.09 32-BIT (Aug 24 2009) winnt ******                   
 ******  
 * fully differential operational amplifier design ****

  ******  operating point information tnom=  25.000 temp=  27.000 *****
 ***** operating point status is all       simulation time is     0.       
    node    =voltage        node    =voltage        node    =voltage

 +0:in      =   0.        0:out     =  -1.790207  0:vcm     = 900.000000m
 +0:vdd     =   1.800000  0:vin     = 900.000000m 0:vip     = 900.000000m
 +0:von     =   1.800000  0:vop     =   9.792809m 1:n1      =   1.465053 
 +1:nrcn    = 629.908720m 1:nrcp    = 629.908720m 1:vbn     = 522.000000m
 +1:vbp1    =   1.230000  1:vbp2    =   1.186000  1:von1    = 629.908720m
 +1:vop1    = 629.908720m


 ****  voltage sources

 subckt                                          xopamp       xopamp      
 element    0:vvdd       0:vvcm       0:vin1       1:vbp1       1:vbp2    
  volts      1.800000   900.000000m    0.           1.230000     1.186000 
  current   -2.559202m    0.           0.           0.           0.       
  power      4.606563m    0.           0.           0.           0.       

 subckt   xopamp      
 element    1:vbn     
  volts    522.000000m
  current    0.       
  power      0.       

     total voltage source power dissipation=    4.606563m     watts



 **** resistors

 subckt   xopamp       xopamp      
 element    1:rzn        1:rzp     
  r value    6.300000k    6.300000k
  v drop     0.           0.       
  current    0.           0.       
  power      0.           0.       


 **** voltage-controlled voltage sources


 subckt                                         
 element    0:ein1       0:ein2       0:eout    
  volts      0.           0.          -1.790207 
  current    0.           0.           1.790207u





 **** mosfets


 subckt   xopamp       xopamp       xopamp       xopamp       xopamp      
 element    1:m5         1:m1         1:m2         1:m3         1:m4      
 model      0:p_18.1     0:p_18.1     0:p_18.1     0:n_18.1     0:n_18.1  
 region     Saturation   Saturation   Saturation   Saturation   Saturation
  id      -267.729503u -133.864746u -133.864746u  133.864750u  133.864750u
  ibs      3.45155e-20  1.75782e-20  1.75782e-20 -2.88372e-20 -2.88372e-20
  ibd        4.567191f    5.694166f    5.694166f   -2.413781f   -2.413781f
  vgs     -570.000000m -565.053493m -565.053493m  522.000000m  522.000000m
  vds     -334.946507m -835.144773m -835.144773m  629.908720m  629.908720m
  vbs        0.           0.           0.           0.           0.       
  vth     -514.208062m -514.472548m -514.472548m  488.644513m  488.644513m
  vdsat   -110.562446m -107.436409m -107.436409m   95.295535m   95.295535m
  vod      -55.791938m  -50.580945m  -50.580945m   33.355487m   33.355487m
  beta      66.467497m   32.514590m   32.514590m   44.659165m   44.659165m
  gam eff  557.084638m  557.084638m  557.084638m  507.446125m  507.446125m
  gm         4.260962m    2.165190m    2.165190m    2.329164m    2.329164m
  gds       77.144450u   22.236842u   22.236842u   59.472915u   59.472915u
  gmb        1.264450m  642.151718u  642.151718u  391.773498u  391.773498u
  cdtot    270.361807f  120.269529f  120.269529f   49.692613f   49.692613f
  cgtot    452.728256f  219.464156f  219.464156f   76.428854f   76.428854f
  cstot    594.300043f  288.438435f  288.438435f  101.801556f  101.801556f
  cbtot    518.939452f  242.799596f  242.799596f   94.333143f   94.333143f
  cgs      333.687591f  160.217879f  160.217879f   53.719300f   53.719300f
  cgd       79.159225f   38.751445f   38.751445f   13.659094f   13.659094f



 subckt   xopamp       xopamp       xopamp       xopamp      
 element    1:m6         1:m7         1:m8         1:m9      
 model      0:p_18.1     0:n_18.1     0:p_18.1     0:n_18.1  
 region     Saturation     Linear       Linear       Linear  
  id        -2.291472m    1.273040m  338.765574f    1.018432m
  ibs      2.93037e-19 -2.62724e-19 -1.47018e-27 -2.10179e-19
  ibd       87.963378f -874.205955a -2.85510e-23 -699.364764a
  vgs     -614.000000m  629.908720m -614.000000m  629.908720m
  vds       -1.790207     9.792809m    8.587797p    9.792809m
  vbs        0.           0.           0.           0.       
  vth     -514.217818m  501.360465m -514.281075m  501.360465m
  vdsat   -141.520543m  154.584573m -141.289432m  154.584573m
  vod      -99.782182m  128.548256m  -99.718925m  128.548256m
  beta     239.867269m    1.084154   419.781665m  867.322982m
  gam eff  557.084613m  507.445997m  557.084657m  507.445997m
  gm        29.360262m    9.284680m    2.810596p    7.427744m
  gds      234.887123u  125.325895m   39.449359m  100.260716m
  gmb        8.767230m    1.616136m  867.514040f    1.292909m
  cdtot    789.896415f    2.957063p    4.353759p    2.365650p
  cgtot      1.746668p    2.445643p    3.550340p    1.956514p
  cstot      2.316056p    2.986815p    4.421315p    2.389452p
  cbtot      1.696387p    2.519859p    3.585165p    2.015887p
  cgs        1.346089p    1.361586p    1.506632p    1.089269p
  cgd      286.682139f  972.970926f    1.987852p  778.376741f



 ******  
 * fully differential operational amplifier design ****

  ******  ac analysis tnom=  25.000 temp=  27.000 *****
   unit_gain= failed
   phase= failed
   phase_margin= failed                         measure parameter failed
 gainmax= -19.254869     at=   1.174898k
             from=   1.000000k    to=   5.011872g
 power_avg=  -4.606563m  from=   1.000000k     to=   5.011872g

          ***** job concluded
1****** HSPICE -- C-2009.09 32-BIT (Aug 24 2009) winnt ******                   
 ******  
 * fully differential operational amplifier design ****

  ******  job statistics summary tnom=  25.000 temp=  27.000 *****

  ******  HSPICE Threads Information  ******

  Command Line Threads Count                  :     1
  Available CPU Count                         :    12
  Actual Model Evaluation(Load) Threads Count :     1
  Actual Solver Threads Count                 :     1


  ******  Circuit Statistics  ******
  # nodes       =      35 # elements   =      25
  # resistors   =       3 # capacitors =       4 # inductors   =       0
  # mutual_inds =       0 # vccs       =       0 # vcvs        =       3
  # cccs        =       0 # ccvs       =       0 # volt_srcs   =       6
  # curr_srcs   =       0 # diodes     =       0 # bjts        =       0
  # jfets       =       0 # mosfets    =       9 # U elements  =       0
  # T elements  =       0 # W elements =       0 # B elements  =       0
  # S elements  =       0 # P elements =       0 # va device   =       0


  ******  Runtime Statistics (seconds)  ******

  analysis           time    # points   tot. iter  conv.iter
  op point           0.01           1          57
  ac analysis        0.04         671         671
  readin             0.07
  errchk             0.01
  setup              0.01
  output             0.00


           total memory used          356  kbytes
           total cpu time            0.15 seconds
           total elapsed time        0.18 seconds
           job started at     17:20:30 03/06/2024
           job ended   at     17:20:30 03/06/2024


  lic: Release hspice token(s) 
