 ****** HSPICE -- C-2009.09 32-BIT (Aug 24 2009) winnt ******                   
  Copyright (C) 2009 Synopsys, Inc. All Rights Reserved.                        
  Unpublished-rights reserved under US copyright laws.
  This program is protected by law and is subject to the 
  terms and conditions of the license agreement from Synopsys.
  Use of this program is your acceptance to be bound by the 
  license agreement. HSPICE is the trademark of Synopsys, Inc.
  Input File: e:\jason\whyee\semeter\analogic\two_stage_opamp\ac_sim_template.sp
  lic:  
  lic: FLEXlm: v8.5b 
  lic: USER:   jason                HOSTNAME: DESKTOP-NP05V42 
  lic: HOSTID: "a8a159b72f8e 00155dc0b14c 001a7dda7113 0a0027000009 7a8cb58aa976
  
  lic: Using FLEXlm license file: 
  lic: 27000@localhost 
  lic: Checkout 1 hspice 
  lic: License/Maintenance for hspice will expire on 31-dec-2028/2008.120 
  lic: FLOATING license(s) on SERVER localhost 
  lic:   
 Init: read install configuration file: C:\synopsys\Hspice_C-2009.09\meta.cfg
1****** HSPICE -- C-2009.09 32-BIT (Aug 24 2009) winnt ******                   
 ******  
 * fully differential operational amplifier design ****

  ******  circuit name directory
 circuit number to circuit name directory
   number circuitname                     definition         multiplier
        0 main circuit
        1 xopamp.                         opamp              1.00 
 

 

 **warning** the following singular supplies were terminated to 1 meg resistor 
   supply       node1            node2
  eout                    0:out              defined in subckt 0                     0:0                defined in subckt 0               
      
 *****************************************************************
 ******  option summary
 ******
 runlvl  = 6         bypass  = 2         
  Opening plot unit= 79
 file=e:\jason\whyee\semeter\analogic\two_stage_opamp\ac_sim_template.pa0      

1****** HSPICE -- C-2009.09 32-BIT (Aug 24 2009) winnt ******                   
 ******  
 * fully differential operational amplifier design ****

  ******  operating point information tnom=  25.000 temp=  27.000 *****
 ***** operating point status is all       simulation time is     0.       
    node    =voltage        node    =voltage        node    =voltage

 +0:in      =   0.        0:out     = -16.557224n 0:vcm     = 900.000000m
 +0:vdd     =   1.800000  0:vin     = 900.000000m 0:vip     = 900.000000m
 +0:von     = 903.610159m 0:vop     = 903.610143m 1:n1      =   1.446337 
 +1:nrcn    = 521.113187m 1:nrcp    = 521.113187m 1:vbn     = 450.000000m
 +1:vbp1    =   1.210000  1:vbp2    =   1.200000  1:von1    = 521.113187m
 +1:vop1    = 521.113187m


 ****  voltage sources

 subckt                                          xopamp       xopamp      
 element    0:vvdd       0:vvcm       0:vin1       1:vbp1       1:vbp2    
  volts      1.800000   900.000000m    0.           1.210000     1.200000 
  current -826.473410u    0.           0.           0.           0.       
  power      1.487652m    0.           0.           0.           0.       

 subckt   xopamp      
 element    1:vbn     
  volts    450.000000m
  current    0.       
  power      0.       

     total voltage source power dissipation=    1.487652m     watts



 **** resistors

 subckt   xopamp       xopamp      
 element    1:rzn        1:rzp     
  r value    2.500000k    2.500000k
  v drop     0.           0.       
  current    0.           0.       
  power      0.           0.       


 **** voltage-controlled voltage sources


 subckt                                         
 element    0:ein1       0:ein2       0:eout    
  volts      0.           0.         -16.557224n
  current    0.           0.          16.557224f





 **** mosfets


 subckt   xopamp       xopamp       xopamp       xopamp       xopamp      
 element    1:m5         1:m1         1:m2         1:m4         1:m3      
 model      0:p_18.1     0:p_18.1     0:p_18.1     0:n_18.1     0:n_18.1  
 region     Saturation   Saturation   Saturation   Saturation   Saturation
  id       -47.361921u  -23.680959u  -23.680959u   23.680960u   23.680960u
  ibs      6.49903e-21  3.02863e-21  3.02863e-21 -5.08623e-21 -5.08623e-21
  ibd      279.226598a    5.632038f    5.632038f   -1.054677f   -1.054677f
  vgs     -590.000000m -546.336989m -546.336989m  450.000000m  450.000000m
  vds     -353.663011m -925.223801m -925.223802m  521.113187m  521.113187m
  vbs        0.           0.           0.           0.           0.       
  vth     -518.054187m -492.949454m -492.949454m  383.450839m  383.450839m
  vdsat   -137.741371m  -92.483947m  -92.483947m   97.344515m   97.344515m
  vod      -71.945813m  -53.387535m  -53.387535m   66.549161m   66.549161m
  beta       7.618414m    7.230627m    7.230627m    6.032288m    6.032288m
  gam eff  557.084597m  557.084653m  557.084653m  507.445985m  507.445985m
  gm       659.957050u  395.122830u  395.122830u  388.394487u  388.394487u
  gds       28.145202u    1.098654u    1.098654u    4.430869u    4.430869u
  gmb      193.842474u  118.784912u  118.784912u   79.663246u   79.663246u
  cdtot     14.761655f  108.379904f  108.379904f   26.922489f   26.922489f
  cgtot     21.442129f  576.080085f  576.080085f  127.920708f  127.920708f
  cstot     29.965027f  649.088528f  649.088528f  142.130775f  142.130775f
  cbtot     27.393341f  358.184387f  358.184386f   74.080852f   74.080852f
  cgs       15.404079f  473.850468f  473.850468f  108.809273f  108.809273f
  cgd        4.250482f   35.534235f   35.534235f    7.011284f    7.011284f



 subckt   xopamp       xopamp       xopamp       xopamp      
 element    1:m6         1:m8         1:m7         1:m9      
 model      0:p_18.1     0:p_18.1     0:n_18.1     0:n_18.1  
 region     Saturation   Saturation   Saturation   Saturation
  id      -389.555737u -389.555736u  389.555741u  389.555740u
  ibs      5.00285e-20  5.00285e-20 -8.11078e-20 -8.11078e-20
  ibd       15.496659f   15.496658f   -9.135416f   -9.135416f
  vgs     -600.000000m -600.000000m  521.113187m  521.113187m
  vds     -896.389857m -896.389841m  903.610143m  903.610159m
  vbs        0.           0.           0.           0.       
  vth     -504.952942m -504.952942m  454.341731m  454.341731m
  vdsat   -129.723848m -129.723848m  109.145938m  109.145938m
  vod      -95.047058m  -95.047058m   66.771456m   66.771456m
  beta      53.793611m   53.793611m   82.440311m   82.440311m
  gam eff  557.084636m  557.084636m  507.446139m  507.446139m
  gm         5.297818m    5.297818m    6.110211m    6.110211m
  gds       40.708096u   40.708097u  105.439211u  105.439211u
  gmb        1.572106m    1.572106m    1.127854m    1.127854m
  cdtot    307.997060f  307.997060f  129.249730f  129.249730f
  cgtot    774.635383f  774.635383f  293.267186f  293.267186f
  cstot    979.160064f  979.160064f  367.942019f  367.942019f
  cbtot    679.568782f  679.568782f  269.424574f  269.424574f
  cgs      618.724803f  618.724803f  228.968408f  228.968408f
  cgd      100.481380f  100.481380f   36.769116f   36.769116f



 ******  
 * fully differential operational amplifier design ****

  ******  ac analysis tnom=  25.000 temp=  27.000 *****
 unit_gain= 178.388824x
 phase=-111.418239 
 phase_margin=  68.581761 
 gainmax=  69.504161     at=   1.000000k
             from=   1.000000k    to=   5.011872g
 power_avg=  -1.487652m  from=   1.000000k     to=   5.011872g

          ***** job concluded
1****** HSPICE -- C-2009.09 32-BIT (Aug 24 2009) winnt ******                   
 ******  
 * fully differential operational amplifier design ****

  ******  job statistics summary tnom=  25.000 temp=  27.000 *****

  ******  HSPICE Threads Information  ******

  Command Line Threads Count                  :     1
  Available CPU Count                         :    12
  Actual Model Evaluation(Load) Threads Count :     1
  Actual Solver Threads Count                 :     1


  ******  Circuit Statistics  ******
  # nodes       =      35 # elements   =      25
  # resistors   =       3 # capacitors =       4 # inductors   =       0
  # mutual_inds =       0 # vccs       =       0 # vcvs        =       3
  # cccs        =       0 # ccvs       =       0 # volt_srcs   =       6
  # curr_srcs   =       0 # diodes     =       0 # bjts        =       0
  # jfets       =       0 # mosfets    =       9 # U elements  =       0
  # T elements  =       0 # W elements =       0 # B elements  =       0
  # S elements  =       0 # P elements =       0 # va device   =       0


  ******  Runtime Statistics (seconds)  ******

  analysis           time    # points   tot. iter  conv.iter
  op point           0.01           1          50
  ac analysis        0.03         671         671
  readin             0.05
  errchk             0.00
  setup              0.01
  output             0.00


           total memory used          356  kbytes
           total cpu time            0.11 seconds
           total elapsed time        0.14 seconds
           job started at     19:34:16 03/23/2024
           job ended   at     19:34:16 03/23/2024


  lic: Release hspice token(s) 
