 ****** HSPICE -- C-2009.09 32-BIT (Aug 24 2009) winnt ******                   
  Copyright (C) 2009 Synopsys, Inc. All Rights Reserved.                        
  Unpublished-rights reserved under US copyright laws.
  This program is protected by law and is subject to the 
  terms and conditions of the license agreement from Synopsys.
  Use of this program is your acceptance to be bound by the 
  license agreement. HSPICE is the trademark of Synopsys, Inc.
  Input File: e:\jason\whyee\semeter\analogic\two_stage_opamp\dc_sim_template.sp
  lic:  
  lic: FLEXlm: v8.5b 
  lic: USER:   jason                HOSTNAME: DESKTOP-NP05V42 
  lic: HOSTID: "a8a159b72f8e 00155d88c49b 001a7dda7113 0a0027000009 7a8cb58aa976
  
  lic: Using FLEXlm license file: 
  lic: 27000@localhost 
  lic: Checkout 1 hspice 
  lic: License/Maintenance for hspice will expire on 31-dec-2028/2008.120 
  lic: FLOATING license(s) on SERVER localhost 
  lic:   
 Init: read install configuration file: C:\synopsys\Hspice_C-2009.09\meta.cfg
1****** HSPICE -- C-2009.09 32-BIT (Aug 24 2009) winnt ******                   
 ******  
 * fully differential operational amplifier design ****

  ******  circuit name directory
 circuit number to circuit name directory
   number circuitname                     definition         multiplier
        0 main circuit
        1 xopamp.                         opamp              1.00 
 

 

 **warning** the following singular supplies were terminated to 1 meg resistor 
   supply       node1            node2
  vvcm                    0:vcm              defined in subckt 0                     0:0                defined in subckt 0               
      
 *****************************************************************
 ******  option summary
 ******
 runlvl  = 6         bypass  = 2         
  Opening plot unit= 79
 file=e:\jason\whyee\semeter\analogic\two_stage_opamp\dc_sim_template.pa0      

 ******  
 * fully differential operational amplifier design ****

  ******  dc transfer curves tnom=  25.000 temp=  27.000 *****
 top_gain= 489.869388 
 bottom_gain=-563.471589 
1****** HSPICE -- C-2009.09 32-BIT (Aug 24 2009) winnt ******                   
 ******  
 * fully differential operational amplifier design ****

  ******  operating point information tnom=  25.000 temp=  27.000 *****
 ***** operating point status is all       simulation time is     0.       
    node    =voltage        node    =voltage        node    =voltage

 +0:vcm     = 900.000000m 0:vdd     =   1.800000  0:vin     =   1.800000 
 +0:vip     =   0.        0:von     =   1.800000  0:vop     =  38.266620m
 +1:n1      =   1.732659  1:nrcn    =  33.378686n 1:nrcp    =   1.707508 
 +1:vbn     = 554.000000m 1:vbp1    =   1.100000  1:vbp2    = 997.000000m
 +1:von1    =   1.707508  1:vop1    =  33.378686n


 ****  voltage sources

 subckt                                          xopamp       xopamp      
 element    0:vvdd       0:vvcm       0:vin+       1:vbp1       1:vbp2    
  volts      1.800000   900.000000m    0.           1.100000   997.000000m
  current -355.094112u -900.000000n    0.           0.           0.       
  power    639.169402u  810.000000n    0.           0.           0.       

 subckt   xopamp      
 element    1:vbn     
  volts    554.000000m
  current    0.       
  power      0.       

     total voltage source power dissipation=  639.979402u     watts



 **** resistors

 subckt   xopamp       xopamp      
 element    1:rzn        1:rzp     
  r value    6.300000k    6.300000k
  v drop     0.           0.       
  current    0.           0.       
  power      0.           0.       


 **** voltage-controlled voltage sources


 subckt               
 element    0:e1      
  volts      1.800000 
  current    0.       





 **** mosfets


 subckt   xopamp       xopamp       xopamp       xopamp       xopamp      
 element    1:m5         1:m1         1:m2         1:m3         1:m4      
 model      0:p_18.1     0:p_18.1     0:p_18.1     0:n_18.1     0:n_18.1  
 region       Linear       Linear       Cutoff     Saturation     Linear  
  id       -24.436956u  -24.436948u -446.500439f   24.436942u    7.381144p
  ibs      3.71458e-21  3.26636e-21  5.22931e-28 -6.13749e-21 -1.85382e-27
  ibd       49.209234a   58.181891a    4.008389f   -1.843229f -3.60301e-23
  vgs     -700.000000m   -1.732659    67.341094m  554.000000m  554.000000m
  vds      -67.341094m  -25.151012m   -1.732659     1.707508    33.378686n
  vbs        0.           0.           0.           0.           0.       
  vth     -528.787030m -478.049225m -478.048795m  338.659374m  346.269027m
  vdsat   -200.389861m   -1.070494   -38.432171m  191.550866m  186.054082m
  vod     -171.212970m   -1.254610   545.389889m  215.340626m  207.730973m
  beta       2.817851m  808.590758u    1.110085m    1.119337m    1.119556m
  gam eff  557.084620m  557.084647m  557.084657m  507.446074m  507.445914m
  gm       155.856721u   14.219123u   13.104292p  202.242848u   36.696680p
  gds      287.454770u  960.019705u   10.690619f    1.641196u  221.156195u
  gmb       47.927456u    8.687330u    5.082773p   38.473996u    7.741896p
  cdtot     24.147110f  801.732294f   35.970237f   10.563263f  193.521131f
  cgtot     24.974591f  698.428723f  226.313086f  143.336694f  178.122638f
  cstot     30.904350f  739.182627f   49.093463f  151.955801f  177.975201f
  cbtot     25.739995f  272.501993f  259.717380f   53.334073f   62.924687f
  cgs       16.536945f  363.898375f   12.919757f  128.664478f   97.179725f
  cgd        7.821148f  336.681924f   12.913200f    3.019312f   76.409883f



 subckt   xopamp       xopamp       xopamp       xopamp      
 element    1:m6         1:m8         1:m7         1:m9      
 model      0:p_18.1     0:p_18.1     0:n_18.1     0:n_18.1  
 region     Saturation     Linear       Linear       Cutoff  
  id      -330.657097u  -52.022683p  330.657104u   44.820665p
  ibs      5.02621e-20  7.90776e-27 -9.58929e-20 -1.40423e-26
  ibd        1.287427f  2.77864e-23  -26.047471a   -1.229742f
  vgs     -803.000000m -803.000000m    1.707508    33.378686n
  vds       -1.761733   -38.032634n   38.266620m    1.800000 
  vbs        0.           0.           0.           0.       
  vth     -520.502556m -532.146322m  524.258729m  463.109413m
  vdsat   -308.365099m -299.418397m  469.248588m   53.085073m
  vod     -282.497444m -270.853678m    1.183249  -463.109380m
  beta       5.905284m    5.884493m    8.089999m    9.705955m
  gam eff  557.084155m  557.084657m  507.449849m  507.445914m
  gm         1.709102m  169.043881p  201.516985u    1.471491n
  gds       47.573346u    1.368622m    8.167215m   33.613987p
  gmb      517.014821u   56.170786p   48.226547u  220.413168p
  cdtot     10.136888f   28.966143f   15.184371f    5.821660f
  cgtot     18.997137f   22.441074f   10.576553f    5.586754f
  cstot     26.946601f   28.798978f   14.432023f    7.923564f
  cbtot     20.973608f   25.194851f   13.472266f   11.721244f
  cgs       14.201621f   11.927324f    5.122093f    1.902723f
  cgd        3.532734f   10.370097f    4.945647f    1.902670f




          ***** job concluded
1****** HSPICE -- C-2009.09 32-BIT (Aug 24 2009) winnt ******                   
 ******  
 * fully differential operational amplifier design ****

  ******  job statistics summary tnom=  25.000 temp=  27.000 *****

  ******  HSPICE Threads Information  ******

  Command Line Threads Count                  :     1
  Available CPU Count                         :    12
  Actual Model Evaluation(Load) Threads Count :     1
  Actual Solver Threads Count                 :     1


  ******  Circuit Statistics  ******
  # nodes       =      33 # elements   =      23
  # resistors   =       3 # capacitors =       4 # inductors   =       0
  # mutual_inds =       0 # vccs       =       0 # vcvs        =       1
  # cccs        =       0 # ccvs       =       0 # volt_srcs   =       6
  # curr_srcs   =       0 # diodes     =       0 # bjts        =       0
  # jfets       =       0 # mosfets    =       9 # U elements  =       0
  # T elements  =       0 # W elements =       0 # B elements  =       0
  # S elements  =       0 # P elements =       0 # va device   =       0


  ******  Runtime Statistics (seconds)  ******

  analysis           time    # points   tot. iter  conv.iter
  op point           0.01           1          45
  dc sweep           0.32       10001       20073
  readin             0.05
  errchk             0.00
  setup              0.02
  output             0.00


           total memory used          503  kbytes
           total cpu time            0.41 seconds
           total elapsed time        0.55 seconds
           job started at     20:27:53 03/16/2024
           job ended   at     20:27:53 03/16/2024


  lic: Release hspice token(s) 
