 ****** HSPICE -- C-2009.09 32-BIT (Aug 24 2009) winnt ******                   
  Copyright (C) 2009 Synopsys, Inc. All Rights Reserved.                        
  Unpublished-rights reserved under US copyright laws.
  This program is protected by law and is subject to the 
  terms and conditions of the license agreement from Synopsys.
  Use of this program is your acceptance to be bound by the 
  license agreement. HSPICE is the trademark of Synopsys, Inc.
  Input File: c:\two_stage_opamp\dc_sim_template.sp                             
  lic:  
  lic: FLEXlm: v8.5b 
  lic: USER:   jason                HOSTNAME: DESKTOP-3NGV65B 
  lic: HOSTID: "54ab3ab24fc2 00155db47fda 40490f8fddd9 42490f8fddd9 52490f8fddd9
 "
  lic: Using FLEXlm license file: 
  lic: 27000@localhost 
  lic: Checkout 1 hspice 
  lic: License/Maintenance for hspice will expire on 31-dec-2028/2008.120 
  lic: FLOATING license(s) on SERVER localhost 
  lic:   
 Init: read install configuration file: C:\synopsys\Hspice_C-2009.09\meta.cfg
1****** HSPICE -- C-2009.09 32-BIT (Aug 24 2009) winnt ******                   
 ******  
 * fully differential operational amplifier design ****

  ******  circuit name directory
 circuit number to circuit name directory
   number circuitname                     definition         multiplier
        0 main circuit
        1 xopamp.                         opamp              1.00 
 

 

 **warning** the following singular supplies were terminated to 1 meg resistor 
   supply       node1            node2
  vvcm                    0:vcm              defined in subckt 0                     0:0                defined in subckt 0               
      
 *****************************************************************
 ******  option summary
 ******
 runlvl  = 6         bypass  = 2         
  Opening plot unit= 79
 file=c:\two_stage_opamp\dc_sim_template.pa0                                   

 ******  
 * fully differential operational amplifier design ****

  ******  dc transfer curves tnom=  25.000 temp=  27.000 *****
 top_gain=   1.007434k
 bottom_gain=  -1.016434k
1****** HSPICE -- C-2009.09 32-BIT (Aug 24 2009) winnt ******                   
 ******  
 * fully differential operational amplifier design ****

  ******  operating point information tnom=  25.000 temp=  27.000 *****
 ***** operating point status is all       simulation time is     0.       
    node    =voltage        node    =voltage        node    =voltage

 +0:vcm     = 900.000000m 0:vdd     =   1.800000  0:vin     =   1.800000 
 +0:vip     =   0.        0:von     =   1.800000  0:vop     =  13.873602m
 +1:n1      =   1.742498  1:nrcn    =  62.149414n 1:nrcp    =   1.733328 
 +1:vbn     = 554.000000m 1:vbp1    =   1.172000  1:vbp2    =   1.186000 
 +1:von1    =   1.733328  1:vop1    =  62.149414n


 ****  voltage sources

 subckt                                          xopamp       xopamp      
 element    0:vvdd       0:vvcm       0:vin+       1:vbp1       1:vbp2    
  volts      1.800000   900.000000m    0.           1.172000     1.186000 
  current -263.177262u -900.000000n    0.           0.           0.       
  power    473.719071u  810.000000n    0.           0.           0.       

 subckt   xopamp      
 element    1:vbn     
  volts    554.000000m
  current    0.       
  power      0.       

     total voltage source power dissipation=  474.529071u     watts



 **** resistors

 subckt   xopamp       xopamp      
 element    1:rzn        1:rzp     
  r value    6.300000k    6.300000k
  v drop     0.           0.       
  current    0.           0.       
  power      0.           0.       


 **** voltage-controlled voltage sources


 subckt               
 element    0:e1      
  volts      1.800000 
  current    0.       





 **** mosfets


 subckt   xopamp       xopamp       xopamp       xopamp       xopamp      
 element    1:m5         1:m1         1:m2         1:m3         1:m4      
 model      0:p_18.1     0:p_18.1     0:p_18.1     0:n_18.1     0:n_18.1  
 region       Linear       Linear       Cutoff     Saturation     Linear  
  id       -13.072875u  -13.072868u -767.405203f   13.072861u    7.740793p
  ibs      1.96956e-21  1.76583e-21  5.74479e-28 -4.36705e-21 -2.58585e-27
  ibd       43.980410a   17.864352a    3.394752f -901.940001a -3.23371e-23
  vgs     -628.000000m   -1.742498    57.501682m  554.000000m  554.000000m
  vds      -57.501682m   -9.170532m   -1.742498     1.733328    62.149414n
  vbs        0.           0.           0.           0.           0.       
  vth     -528.003914m -488.530261m -488.529987m  369.694491m  380.715257m
  vdsat   -143.075290m   -1.061976   -39.525333m  173.443389m  165.578299m
  vod      -99.996086m   -1.253968   546.031669m  184.305509m  173.284743m
  beta       3.032281m    1.197719m    1.636807m  757.354341u  757.483298u
  gam eff  557.084638m  557.084650m  557.084657m  507.446150m  507.445914m
  gm       125.939634u    7.443166u   22.354790p  121.292096u   45.269971p
  gds      168.420082u    1.419528m   28.610639f    1.192692u  124.571235u
  gmb       37.553565u    4.515678u    8.588242p   23.353899u    9.593141p
  cdtot     21.248256f  392.520325f   29.986709f    3.941376f   39.122491f
  cgtot     24.961726f  324.772617f  111.892184f   28.659778f   35.173577f
  cstot     31.082426f  355.403988f   40.971651f   31.631579f   36.460248f
  cbtot     27.039894f  151.026100f  139.803600f   13.567068f   16.056975f
  cgs       17.359487f  167.417312f   10.763919f   25.242474f   19.551739f
  cgd        6.545722f  157.706374f   10.761000f    1.134005f   14.731559f



 subckt   xopamp       xopamp       xopamp       xopamp      
 element    1:m6         1:m8         1:m7         1:m9      
 model      0:p_18.1     0:p_18.1     0:n_18.1     0:n_18.1  
 region     Saturation     Linear       Linear       Cutoff  
  id      -250.104282u  -96.753307p  250.104289u   89.549223p
  ibs      3.39343e-20  1.31275e-26 -6.20050e-20 -2.30932e-26
  ibd        3.262270f  1.10714e-22  -15.812592a   -2.059615f
  vgs     -614.000000m -614.000000m    1.733328    62.149414n
  vds       -1.786126   -60.623862n   13.873602m    1.800000 
  vbs        0.           0.           0.           0.       
  vth     -506.341414m -518.197747m  522.654304m  461.136343m
  vdsat   -164.982081m -155.532618m  469.928029m   52.959445m
  vod     -107.658586m  -95.802253m    1.210673  -461.136280m
  beta      17.870924m   17.814540m   15.847183m   18.971270m
  gam eff  557.084521m  557.084657m  507.447433m  507.445914m
  gm         2.824183m  788.620436p  144.600149u    2.943160n
  gds       57.973916u    1.596339m   17.752212m   66.884639p
  gmb      813.519634u  238.153756p   35.963261u  445.247904p
  cdtot     27.888605f   74.309408f   29.831587f   11.220321f
  cgtot     51.893675f   60.301996f   20.726241f   10.940360f
  cstot     72.730567f   75.809210f   28.085403f   15.255879f
  cbtot     57.535704f   69.095463f   25.991853f   22.505735f
  cgs       38.093237f   32.902434f    9.973205f    3.727782f
  cgd        9.900409f   26.268161f    9.776737f    3.727680f




          ***** job concluded
1****** HSPICE -- C-2009.09 32-BIT (Aug 24 2009) winnt ******                   
 ******  
 * fully differential operational amplifier design ****

  ******  job statistics summary tnom=  25.000 temp=  27.000 *****

  ******  HSPICE Threads Information  ******

  Command Line Threads Count                  :     1
  Available CPU Count                         :     4
  Actual Model Evaluation(Load) Threads Count :     1
  Actual Solver Threads Count                 :     1


  ******  Circuit Statistics  ******
  # nodes       =      33 # elements   =      23
  # resistors   =       3 # capacitors =       4 # inductors   =       0
  # mutual_inds =       0 # vccs       =       0 # vcvs        =       1
  # cccs        =       0 # ccvs       =       0 # volt_srcs   =       6
  # curr_srcs   =       0 # diodes     =       0 # bjts        =       0
  # jfets       =       0 # mosfets    =       9 # U elements  =       0
  # T elements  =       0 # W elements =       0 # B elements  =       0
  # S elements  =       0 # P elements =       0 # va device   =       0


  ******  Runtime Statistics (seconds)  ******

  analysis           time    # points   tot. iter  conv.iter
  op point           0.03           1          48
  dc sweep           0.55       10001       20076
  readin             0.22
  errchk             0.03
  setup              0.07
  output             0.00


           total memory used          503  kbytes
           total cpu time            0.93 seconds
           total elapsed time        1.05 seconds
           job started at     15:44:32 03/08/2024
           job ended   at     15:44:33 03/08/2024


  lic: Release hspice token(s) 
