 ****** HSPICE -- C-2009.09 32-BIT (Aug 24 2009) winnt ******                   
  Copyright (C) 2009 Synopsys, Inc. All Rights Reserved.                        
  Unpublished-rights reserved under US copyright laws.
  This program is protected by law and is subject to the 
  terms and conditions of the license agreement from Synopsys.
  Use of this program is your acceptance to be bound by the 
  license agreement. HSPICE is the trademark of Synopsys, Inc.
  Input File: e:\jason\whyee\semeter\analogic\two_stage_opamp\dc_sim_template.sp
  lic:  
  lic: FLEXlm: v8.5b 
  lic: USER:   jason                HOSTNAME: DESKTOP-NP05V42 
  lic: HOSTID: "a8a159b72f8e 00155dc0b14c 001a7dda7113 0a0027000009 7a8cb58aa976
  
  lic: Using FLEXlm license file: 
  lic: 27000@localhost 
  lic: Checkout 1 hspice 
  lic: License/Maintenance for hspice will expire on 31-dec-2028/2008.120 
  lic: FLOATING license(s) on SERVER localhost 
  lic:   
 Init: read install configuration file: C:\synopsys\Hspice_C-2009.09\meta.cfg
1****** HSPICE -- C-2009.09 32-BIT (Aug 24 2009) winnt ******                   
 ******  
 * fully differential operational amplifier design ****

  ******  circuit name directory
 circuit number to circuit name directory
   number circuitname                     definition         multiplier
        0 main circuit
        1 xopamp.                         opamp              1.00 
 

 

 **warning** the following singular supplies were terminated to 1 meg resistor 
   supply       node1            node2
  vvcm                    0:vcm              defined in subckt 0                     0:0                defined in subckt 0               
      
 *****************************************************************
 ******  option summary
 ******
 runlvl  = 6         bypass  = 2         
  Opening plot unit= 79
 file=e:\jason\whyee\semeter\analogic\two_stage_opamp\dc_sim_template.pa0      

 ******  
 * fully differential operational amplifier design ****

  ******  dc transfer curves tnom=  25.000 temp=  27.000 *****
 top_gain=   2.351877k
 bottom_gain=  -2.297798k
1****** HSPICE -- C-2009.09 32-BIT (Aug 24 2009) winnt ******                   
 ******  
 * fully differential operational amplifier design ****

  ******  operating point information tnom=  25.000 temp=  27.000 *****
 ***** operating point status is all       simulation time is     0.       
    node    =voltage        node    =voltage        node    =voltage

 +0:vcm     = 900.000000m 0:vdd     =   1.800000  0:vin     =   1.800000 
 +0:vip     =   0.        0:von     =   1.800000  0:vop     =   4.890179m
 +1:n1      =   1.725237  1:nrcn    =  13.846163n 1:nrcp    =   1.720614 
 +1:vbn     = 450.000000m 1:vbp1    =   1.210000  1:vbp2    =   1.200000 
 +1:von1    =   1.720614  1:vop1    =  13.846163n


 ****  voltage sources

 subckt                                          xopamp       xopamp      
 element    0:vvdd       0:vvcm       0:vin+       1:vbp1       1:vbp2    
  volts      1.800000   900.000000m    0.           1.210000     1.200000 
  current -449.891449u -900.000000n    0.           0.           0.       
  power    809.804609u  810.000000n    0.           0.           0.       

 subckt   xopamp      
 element    1:vbn     
  volts    450.000000m
  current    0.       
  power      0.       

     total voltage source power dissipation=  810.614609u     watts



 **** resistors

 subckt   xopamp       xopamp      
 element    1:rzn        1:rzp     
  r value    2.500000k    2.500000k
  v drop   1.65436e-24    0.       
  current  6.61744e-28    0.       
  power      0.           0.       


 **** voltage-controlled voltage sources


 subckt               
 element    0:e1      
  volts      1.800000 
  current    0.       





 **** mosfets


 subckt   xopamp       xopamp       xopamp       xopamp       xopamp      
 element    1:m5         1:m1         1:m2         1:m4         1:m3      
 model      0:p_18.1     0:p_18.1     0:p_18.1     0:n_18.1     0:n_18.1  
 region     Saturation     Linear       Cutoff       Linear     Saturation
  id       -28.990768u  -28.990762u   -2.146255p    5.607232p   28.990759u
  ibs      3.97813e-21  3.70772e-21  4.93347e-28 -1.20433e-27 -6.22668e-21
  ibd       59.024751a   28.135864a   10.501898f -2.80221e-23   -3.482350f
  vgs     -590.000000m   -1.725237    74.762907m  450.000000m  450.000000m
  vds      -74.762907m   -4.622729m   -1.725237    13.846163n    1.720614 
  vbs        0.           0.           0.           0.           0.       
  vth     -519.904892m -492.949487m -492.949305m  387.389871m  374.382743m
  vdsat   -136.373470m   -1.032312   -40.216390m   95.011755m  102.853948m
  vod      -70.095108m   -1.232288   567.712211m   62.610129m   75.617257m
  beta       7.614268m    5.426710m    7.366652m    6.033379m    6.029701m
  gam eff  557.084620m  557.084652m  557.084657m  507.445914m  507.446000m
  gm       332.922535u   16.522138u   61.973192p   62.841309p  449.079147u
  gds      246.245333u    6.258656m   98.110529f  405.001228u    4.617379u
  gmb       98.714869u    9.828051u   23.860319p   13.429469p   89.529612u
  cdtot     18.536168f  988.266982f   98.450461f  152.390661f   22.785136f
  cgtot     22.396896f  791.957752f  288.424889f  154.113578f  129.749299f
  cstot     29.775745f  886.871288f  134.190735f  154.189585f  144.302099f
  cbtot     28.748385f  412.889473f  379.013722f   82.021596f   70.054231f
  cgs       15.498343f  406.509605f   35.518428f   91.463093f  110.558129f
  cgd        5.411015f  385.227962f   35.511300f   56.169403f    6.974131f



 subckt   xopamp       xopamp       xopamp       xopamp      
 element    1:m6         1:m8         1:m7         1:m9      
 model      0:p_18.1     0:p_18.1     0:n_18.1     0:n_18.1  
 region     Saturation     Linear       Linear       Cutoff  
  id      -420.900537u -130.529522p  420.900551u  123.286600p
  ibs      5.40539e-20  1.67635e-26 -8.76340e-20 -2.64185e-26
  ibd       31.033646f  4.60887e-22  -49.352065a  -18.197997f
  vgs     -600.000000m -600.000000m    1.720614    13.846163n
  vds       -1.795110   -26.660461n    4.890179m    1.800000 
  vbs        0.           0.           0.           0.       
  vth     -504.952878m -504.952219m  468.476475m  440.242031m
  vdsat   -129.781012m -129.668423m  726.325114m   45.204896m
  vod      -95.047122m  -95.047781m    1.252138  -440.242017m
  beta      53.792671m   53.794548m   70.568646m   82.288439m
  gam eff  557.084634m  557.084657m  507.446157m  507.445914m
  gm         5.652236m    1.124817n  236.967862u    4.428533n
  gds       31.480421u    4.896352m   85.972626m   59.817827p
  gmb        1.679107m  347.859399p   76.172137u  918.099820p
  cdtot    276.758223f    1.084298p  496.060145f  116.207045f
  cgtot    774.687326f  910.235213f  364.298295f  151.140565f
  cstot    979.536430f    1.064072p  444.083964f  157.846011f
  cbtot    648.387476f  780.967787f  303.968261f  268.318300f
  cgs      618.823418f  516.918156f  178.323510f   39.220396f
  cgd      100.450864f  376.793809f  174.296565f   39.218300f




          ***** job concluded
1****** HSPICE -- C-2009.09 32-BIT (Aug 24 2009) winnt ******                   
 ******  
 * fully differential operational amplifier design ****

  ******  job statistics summary tnom=  25.000 temp=  27.000 *****

  ******  HSPICE Threads Information  ******

  Command Line Threads Count                  :     1
  Available CPU Count                         :    12
  Actual Model Evaluation(Load) Threads Count :     1
  Actual Solver Threads Count                 :     1


  ******  Circuit Statistics  ******
  # nodes       =      33 # elements   =      23
  # resistors   =       3 # capacitors =       4 # inductors   =       0
  # mutual_inds =       0 # vccs       =       0 # vcvs        =       1
  # cccs        =       0 # ccvs       =       0 # volt_srcs   =       6
  # curr_srcs   =       0 # diodes     =       0 # bjts        =       0
  # jfets       =       0 # mosfets    =       9 # U elements  =       0
  # T elements  =       0 # W elements =       0 # B elements  =       0
  # S elements  =       0 # P elements =       0 # va device   =       0


  ******  Runtime Statistics (seconds)  ******

  analysis           time    # points   tot. iter  conv.iter
  op point           0.00           1          50
  dc sweep           0.22       10001       20061
  readin             0.05
  errchk             0.01
  setup              0.04
  output             0.00


           total memory used          503  kbytes
           total cpu time            0.33 seconds
           total elapsed time        0.36 seconds
           job started at     19:45:49 03/23/2024
           job ended   at     19:45:49 03/23/2024


  lic: Release hspice token(s) 
