 ****** HSPICE -- C-2009.09 32-BIT (Aug 24 2009) winnt ******                   
  Copyright (C) 2009 Synopsys, Inc. All Rights Reserved.                        
  Unpublished-rights reserved under US copyright laws.
  This program is protected by law and is subject to the 
  terms and conditions of the license agreement from Synopsys.
  Use of this program is your acceptance to be bound by the 
  license agreement. HSPICE is the trademark of Synopsys, Inc.
  Input File: e:\jason\whyee\semeter\analogic\two_stage_opamp\dc_sim_template.sp
  lic:  
  lic: FLEXlm: v8.5b 
  lic: USER:   jason                HOSTNAME: DESKTOP-NP05V42 
  lic: HOSTID: "a8a159b72f8e 0a0027000009 7a8cb58aa976 788cb58aa976 788cb58aa976
 "
  lic: Using FLEXlm license file: 
  lic: 27000@localhost 
  lic: Checkout 1 hspice 
  lic: License/Maintenance for hspice will expire on 31-dec-2028/2008.120 
  lic: FLOATING license(s) on SERVER localhost 
  lic:   
 Init: read install configuration file: C:\synopsys\Hspice_C-2009.09\meta.cfg
1****** HSPICE -- C-2009.09 32-BIT (Aug 24 2009) winnt ******                   
 ******  
 * fully differential operational amplifier design ****

  ******  circuit name directory
 circuit number to circuit name directory
   number circuitname                     definition         multiplier
        0 main circuit
        1 xopamp.                         opamp              1.00 
 

 

 **warning** the following singular supplies were terminated to 1 meg resistor 
   supply       node1            node2
  vvcm                    0:vcm              defined in subckt 0                     0:0                defined in subckt 0               
      
 *****************************************************************
 ******  option summary
 ******
 runlvl  = 6         bypass  = 2         
  Opening plot unit= 79
 file=e:\jason\whyee\semeter\analogic\two_stage_opamp\dc_sim_template.pa0      

 ******  
 * fully differential operational amplifier design ****

  ******  dc transfer curves tnom=  25.000 temp=  27.000 *****
 top_gain=   1.951468k
 bottom_gain=  -1.947357k
1****** HSPICE -- C-2009.09 32-BIT (Aug 24 2009) winnt ******                   
 ******  
 * fully differential operational amplifier design ****

  ******  operating point information tnom=  25.000 temp=  27.000 *****
 ***** operating point status is all       simulation time is     0.       
    node    =voltage        node    =voltage        node    =voltage

 +0:vcm     = 900.000000m 0:vdd     =   1.800000  0:vin     =   1.800000 
 +0:vip     =   0.        0:von     =   1.800000  0:vop     =   6.870199m
 +1:n1      =   1.736877  1:nrcn    =  62.826373n 1:nrcp    =   1.733290 
 +1:vbn     = 370.000000m 1:vbp1    =   1.210000  1:vbp2    =   1.230000 
 +1:von1    =   1.733290  1:vop1    =  62.826373n


 ****  voltage sources

 subckt                                          xopamp       xopamp      
 element    0:vvdd       0:vvcm       0:vin+       1:vbp1       1:vbp2    
  volts      1.800000   900.000000m    0.           1.210000     1.230000 
  current -671.265651u -900.000000n    0.           0.           0.       
  power      1.208278m  810.000000n    0.           0.           0.       

 subckt   xopamp      
 element    1:vbn     
  volts    370.000000m
  current    0.       
  power      0.       

     total voltage source power dissipation=    1.209088m     watts



 **** resistors

 subckt   xopamp       xopamp      
 element    1:rzn        1:rzp     
  r value    4.340000k    4.340000k
  v drop     0.        -222.044605a
  current    0.        -5.11624e-20
  power      0.           0.       


 **** voltage-controlled voltage sources


 subckt               
 element    0:e1      
  volts      1.800000 
  current    0.       





 **** mosfets


 subckt   xopamp       xopamp       xopamp       xopamp       xopamp      
 element    1:m5         1:m1         1:m2         1:m4         1:m3      
 model      0:p_18.1     0:p_18.1     0:p_18.1     0:n_18.1     0:n_18.1  
 region     Saturation     Linear       Cutoff       Linear     Saturation
  id       -13.418130u  -13.418114u   -2.342323p   16.263139p   13.418107u
  ibs      2.14726e-21  1.72727e-21  1.19389e-27 -3.41343e-27 -2.81629e-21
  ibd       36.906441a   53.282791a   25.798003f -4.56325e-22  -12.589433f
  vgs     -590.000000m   -1.736877    63.122665m  370.000000m  370.000000m
  vds      -63.122665m   -3.587435m   -1.736877    62.826373n    1.733290 
  vbs        0.           0.           0.           0.           0.       
  vth     -534.256805m -468.433161m -468.433125m  327.097078m  321.319792m
  vdsat   -127.353337m   -1.086055   -37.708831m   77.655879m   80.640781m
  vod      -55.743195m   -1.268444   531.555790m   42.902922m   48.680208m
  beta       4.599716m    3.018706m    4.172507m    4.958949m    4.956377m
  gam eff  557.084630m  557.084656m  557.084657m  507.445914m  507.445925m
  gm       161.580104u    7.585703u   68.827360p  210.206512p  243.086907u
  gds      143.409904u    3.734292m   33.312984f  258.862231u    1.281591u
  gmb       48.270447u    4.746727u   26.596806p   44.992353p   48.951249u
  cdtot     12.141787f    9.440645p  238.589470f    1.893242p   83.423985f
  cgtot     13.921853f    8.404067p    2.607662p    2.225082p    1.832120p
  cstot     18.663455f    8.729119p  325.597798f    1.969627p    1.843526p
  cbtot     18.768581f    2.953380p    2.827417p  763.841759f  675.808980f
  cgs        9.414516f    4.345033p   86.167582f    1.309185p    1.575301p
  cgd        3.479053f    4.091840p   86.088000f  773.521494f   23.728665f



 subckt   xopamp       xopamp       xopamp       xopamp      
 element    1:m6         1:m8         1:m7         1:m9      
 model      0:p_18.1     0:p_18.1     0:n_18.1     0:n_18.1  
 region     Saturation     Linear       Linear       Cutoff  
  id      -657.847004u -503.013733p  657.847018u  495.801704p
  ibs      8.62213e-20  6.59278e-26 -1.39766e-19 -1.06103e-25
  ibd       12.880722f  7.66449e-22  -34.947832a   -9.192991f
  vgs     -570.000000m -570.000000m    1.733290    62.826373n
  vds       -1.793130  -106.706115n    6.870199m    1.800000 
  vbs        0.           0.           0.           0.       
  vth     -498.833491m -510.748553m  519.845935m  458.474917m
  vdsat   -136.939564m -128.324515m  467.945927m   53.457754m
  vod      -71.166509m  -59.251447m    1.213444  -458.474854m
  beta      74.240247m   74.005586m   83.019394m   98.597168m
  gam eff  557.084569m  557.084657m  507.446681m  507.445914m
  gm         8.827250m    5.084739n  380.188359u   16.309351n
  gds      172.636755u    4.714819m   95.408603m  369.658034p
  gmb        2.557397m    1.536133n   93.733249u    2.475357n
  cdtot    112.979719f  287.342542f  153.847293f   57.625832f
  cgtot    203.896472f  232.112778f  107.955271f   56.947876f
  cstot    284.075980f  292.076145f  144.919236f   78.282589f
  cbtot    232.632006f  278.931698f  133.227877f  115.195758f
  cgs      145.869609f  123.550297f   51.837859f   19.415526f
  cgd       40.360845f  100.461645f   51.058351f   19.415000f




          ***** job concluded
1****** HSPICE -- C-2009.09 32-BIT (Aug 24 2009) winnt ******                   
 ******  
 * fully differential operational amplifier design ****

  ******  job statistics summary tnom=  25.000 temp=  27.000 *****

  ******  HSPICE Threads Information  ******

  Command Line Threads Count                  :     1
  Available CPU Count                         :    12
  Actual Model Evaluation(Load) Threads Count :     1
  Actual Solver Threads Count                 :     1


  ******  Circuit Statistics  ******
  # nodes       =      33 # elements   =      23
  # resistors   =       3 # capacitors =       4 # inductors   =       0
  # mutual_inds =       0 # vccs       =       0 # vcvs        =       1
  # cccs        =       0 # ccvs       =       0 # volt_srcs   =       6
  # curr_srcs   =       0 # diodes     =       0 # bjts        =       0
  # jfets       =       0 # mosfets    =       9 # U elements  =       0
  # T elements  =       0 # W elements =       0 # B elements  =       0
  # S elements  =       0 # P elements =       0 # va device   =       0


  ******  Runtime Statistics (seconds)  ******

  analysis           time    # points   tot. iter  conv.iter
  op point           0.00           1          59
  dc sweep           0.21       10001       20064
  readin             0.04
  errchk             0.01
  setup              0.01
  output             0.00


           total memory used          503  kbytes
           total cpu time            0.28 seconds
           total elapsed time        0.34 seconds
           job started at     09:15:36 03/20/2024
           job ended   at     09:15:37 03/20/2024


  lic: Release hspice token(s) 
