 ****** HSPICE -- C-2009.09 32-BIT (Aug 24 2009) winnt ******                   
  Copyright (C) 2009 Synopsys, Inc. All Rights Reserved.                        
  Unpublished-rights reserved under US copyright laws.
  This program is protected by law and is subject to the 
  terms and conditions of the license agreement from Synopsys.
  Use of this program is your acceptance to be bound by the 
  license agreement. HSPICE is the trademark of Synopsys, Inc.
  Input File: e:\jason\whyee\semeter\analogic\two_stage_opamp\tran_sim_template.
  lic:  
  lic: FLEXlm: v8.5b 
  lic: USER:   jason                HOSTNAME: DESKTOP-NP05V42 
  lic: HOSTID: "a8a159b72f8e 00155d88c49b 001a7dda7113 0a0027000009 7a8cb58aa976
  
  lic: Using FLEXlm license file: 
  lic: 27000@localhost 
  lic: Checkout 1 hspice 
  lic: License/Maintenance for hspice will expire on 31-dec-2028/2008.120 
  lic: FLOATING license(s) on SERVER localhost 
  lic:   
 Init: read install configuration file: C:\synopsys\Hspice_C-2009.09\meta.cfg
1****** HSPICE -- C-2009.09 32-BIT (Aug 24 2009) winnt ******                   
 ******  
 * fully differential operational amplifier design ****

  ******  circuit name directory
 circuit number to circuit name directory
   number circuitname                     definition         multiplier
        0 main circuit
        1 xopamp.                         opamp              1.00 
  **warning** (e:\jason\whyee\semeter\analogic\two_stage_opamp\tran_sim_template.sp:28) dc voltage reset to initial transient source value              in source        0:vin1                new dc=  0.0000D+00
 

 

 **warning** the following singular supplies were terminated to 1 meg resistor 
   supply       node1            node2
  eout                    0:out              defined in subckt 0                     0:0                defined in subckt 0               
      
 *****************************************************************
 ******  option summary
 ******
 runlvl  = 6         bypass  = 2         
  Opening plot unit= 79
 file=e:\jason\whyee\semeter\analogic\two_stage_opamp\tran_sim_template.pa0    

1****** HSPICE -- C-2009.09 32-BIT (Aug 24 2009) winnt ******                   
 ******  
 * fully differential operational amplifier design ****

  ******  operating point information tnom=  25.000 temp=  27.000 *****
 ***** operating point status is all       simulation time is     0.       
    node    =voltage        node    =voltage        node    =voltage

 +0:in      =   0.        0:out     =   2.816130n 0:vcm     = 900.000000m
 +0:vdd     =   1.800000  0:vin     = 900.000000m 0:vip     = 900.000000m
 +0:von     = 863.483819m 0:vop     = 863.483822m 1:n1      =   1.593162 
 +1:nrcn    = 731.755090m 1:nrcp    = 731.755090m 1:vbn     = 554.000000m
 +1:vbp1    =   1.100000  1:vbp2    = 997.000000m 1:von1    = 731.755090m
 +1:vop1    = 731.755090m


 ****  voltage sources

 subckt                                          xopamp       xopamp      
 element    0:vvdd       0:vvcm       0:vin1       1:vbp1       1:vbp2    
  volts      1.800000   900.000000m    0.           1.100000   997.000000m
  current -616.265361u    0.           0.           0.           0.       
  power      1.109278m    0.           0.           0.           0.       

 subckt   xopamp      
 element    1:vbn     
  volts    554.000000m
  current    0.       
  power      0.       

     total voltage source power dissipation=    1.109278m     watts



 **** resistors

 subckt   xopamp       xopamp      
 element    1:rzn        1:rzp     
  r value    6.300000k    6.300000k
  v drop     0.           0.       
  current    0.           0.       
  power      0.           0.       


 **** voltage-controlled voltage sources


 subckt                                         
 element    0:ein1       0:ein2       0:eout    
  volts      0.           0.           2.816130n
  current    0.           0.          -2.816130f





 **** mosfets


 subckt   xopamp       xopamp       xopamp       xopamp       xopamp      
 element    1:m5         1:m1         1:m2         1:m3         1:m4      
 model      0:p_18.1     0:p_18.1     0:p_18.1     0:n_18.1     0:n_18.1  
 region     Saturation   Saturation   Saturation   Saturation   Saturation
  id       -45.680314u  -22.840154u  -22.840154u   22.840155u   22.840155u
  ibs      6.94371e-21  3.05293e-21  3.05293e-21 -5.73645e-21 -5.73645e-21
  ibd      151.150422a    1.992804f    1.992804f -789.915471a -789.915471a
  vgs     -700.000000m -693.162111m -693.162111m  554.000000m  554.000000m
  vds     -206.837889m -861.407022m -861.407021m  731.755090m  731.755090m
  vbs        0.           0.           0.           0.           0.       
  vth     -528.783258m -478.049197m -478.049197m  343.008549m  343.008549m
  vdsat   -200.402740m -200.738219m -200.738219m  188.405183m  188.405183m
  vod     -171.216742m -215.112914m -215.112914m  210.991451m  210.991451m
  beta       2.817847m    1.044665m    1.044665m    1.119464m    1.119464m
  gam eff  557.084588m  557.084647m  557.084647m  507.446063m  507.446063m
  gm       399.406324u  185.712080u  185.712080u  193.822706u  193.822706u
  gds       49.429030u  419.023442n  419.023442n    1.670033u    1.670033u
  gmb      118.519104u   57.806287u   57.806287u   37.705703u   37.705703u
  cdtot     13.713381f   40.275442f   40.275442f   12.075002f   12.075002f
  cgtot     22.703057f  556.036644f  556.036644f  143.413799f  143.413799f
  cstot     30.047831f  631.911939f  631.911939f  152.330325f  152.330325f
  cbtot     24.718908f  238.987655f  238.987655f   54.759752f   54.759752f
  cgs       17.579278f  503.580312f  503.580312f  129.139691f  129.139691f
  cgd        3.877429f   13.027518f   13.027518f    3.061201f    3.061201f



 subckt   xopamp       xopamp       xopamp       xopamp      
 element    1:m6         1:m8         1:m7         1:m9      
 model      0:p_18.1     0:p_18.1     0:n_18.1     0:n_18.1  
 region     Saturation   Saturation   Saturation   Saturation
  id      -285.292519u -285.292519u  285.292519u  285.292520u
  ibs      4.33664e-20  4.33664e-20 -8.27369e-20 -8.27369e-20
  ibd      684.363730a  684.363732a -589.840597a -589.840595a
  vgs     -803.000000m -803.000000m  731.755090m  731.755090m
  vds     -936.516178m -936.516181m  863.483822m  863.483819m
  vbs        0.           0.           0.           0.       
  vth     -525.963625m -525.963625m  495.625497m  495.625497m
  vdsat   -304.168826m -304.168826m  210.265159m  210.265159m
  vod     -277.036375m -277.036375m  236.129593m  236.129593m
  beta       5.895542m    5.895542m    9.627099m    9.627099m
  gam eff  557.084224m  557.084224m  507.449309m  507.449309m
  gm         1.540529m    1.540529m    1.762949m    1.762949m
  gds       67.533461u   67.533461u   81.542138u   81.542138u
  gmb      473.778824u  473.778825u  255.610388u  255.610388u
  cdtot     11.190221f   11.190221f    6.522992f    6.522992f
  cgtot     19.001388f   19.001388f    9.142114f    9.142114f
  cstot     26.990107f   26.990107f   13.250764f   13.250764f
  cbtot     22.022263f   22.022263f   12.079657f   12.079657f
  cgs       14.251767f   14.251767f    6.602367f    6.602367f
  cgd        3.535459f    3.535459f    1.766330f    1.766330f



 ******  
 * fully differential operational amplifier design ****

  ******  transient analysis tnom=  25.000 temp=  27.000 *****
 slew_rate= 294.176216x

          ***** job concluded
1****** HSPICE -- C-2009.09 32-BIT (Aug 24 2009) winnt ******                   
 ******  
 * fully differential operational amplifier design ****

  ******  job statistics summary tnom=  25.000 temp=  27.000 *****

  ******  HSPICE Threads Information  ******

  Command Line Threads Count                  :     1
  Available CPU Count                         :    12
  Actual Model Evaluation(Load) Threads Count :     1
  Actual Solver Threads Count                 :     1


  ******  Circuit Statistics  ******
  # nodes       =      35 # elements   =      25
  # resistors   =       3 # capacitors =       4 # inductors   =       0
  # mutual_inds =       0 # vccs       =       0 # vcvs        =       3
  # cccs        =       0 # ccvs       =       0 # volt_srcs   =       6
  # curr_srcs   =       0 # diodes     =       0 # bjts        =       0
  # jfets       =       0 # mosfets    =       9 # U elements  =       0
  # T elements  =       0 # W elements =       0 # B elements  =       0
  # S elements  =       0 # P elements =       0 # va device   =       0


  ******  Runtime Statistics (seconds)  ******

  analysis           time    # points   tot. iter  conv.iter
  op point           0.01           1          50
  transient          0.03       40001         270         100 rev=         6
  readin             0.04
  errchk             0.01
  setup              0.07
  output             0.00


           total memory used          345  kbytes
           total cpu time            0.16 seconds
           total elapsed time        0.54 seconds
           job started at     20:27:59 03/16/2024
           job ended   at     20:27:59 03/16/2024


  lic: Release hspice token(s) 
