 ****** HSPICE -- C-2009.09 32-BIT (Aug 24 2009) winnt ******                   
  Copyright (C) 2009 Synopsys, Inc. All Rights Reserved.                        
  Unpublished-rights reserved under US copyright laws.
  This program is protected by law and is subject to the 
  terms and conditions of the license agreement from Synopsys.
  Use of this program is your acceptance to be bound by the 
  license agreement. HSPICE is the trademark of Synopsys, Inc.
  Input File: e:\jason\whyee\semeter\analogic\two_stage_opamp\tran_sim_template.
  lic:  
  lic: FLEXlm: v8.5b 
  lic: USER:   jason                HOSTNAME: DESKTOP-NP05V42 
  lic: HOSTID: "a8a159b72f8e 0a0027000009 7a8cb58aa976 788cb58aa976 788cb58aa976
 "
  lic: Using FLEXlm license file: 
  lic: 27000@localhost 
  lic: Checkout 1 hspice 
  lic: License/Maintenance for hspice will expire on 31-dec-2028/2008.120 
  lic: FLOATING license(s) on SERVER localhost 
  lic:   
 Init: read install configuration file: C:\synopsys\Hspice_C-2009.09\meta.cfg
1****** HSPICE -- C-2009.09 32-BIT (Aug 24 2009) winnt ******                   
 ******  
 * fully differential operational amplifier design ****

  ******  circuit name directory
 circuit number to circuit name directory
   number circuitname                     definition         multiplier
        0 main circuit
        1 xopamp.                         opamp              1.00 
  **warning** (e:\jason\whyee\semeter\analogic\two_stage_opamp\tran_sim_template.sp:28) dc voltage reset to initial transient source value              in source        0:vin1                new dc=  0.0000D+00
 

 

 **warning** the following singular supplies were terminated to 1 meg resistor 
   supply       node1            node2
  eout                    0:out              defined in subckt 0                     0:0                defined in subckt 0               
      
 *****************************************************************
 ******  option summary
 ******
 runlvl  = 6         bypass  = 2         
  Opening plot unit= 79
 file=e:\jason\whyee\semeter\analogic\two_stage_opamp\tran_sim_template.pa0    

1****** HSPICE -- C-2009.09 32-BIT (Aug 24 2009) winnt ******                   
 ******  
 * fully differential operational amplifier design ****

  ******  operating point information tnom=  25.000 temp=  27.000 *****
 ***** operating point status is all       simulation time is     0.       
    node    =voltage        node    =voltage        node    =voltage

 +0:in      =   0.        0:out     = -12.562092n 0:vcm     = 900.000000m
 +0:vdd     =   1.800000  0:vin     = 900.000000m 0:vip     = 900.000000m
 +0:von     = 896.735877m 0:vop     = 896.735864m 1:n1      =   1.420875 
 +1:nrcn    = 544.554354m 1:nrcp    = 544.554355m 1:vbn     = 370.000000m
 +1:vbp1    =   1.210000  1:vbp2    =   1.230000  1:von1    = 544.554355m
 +1:vop1    = 544.554354m


 ****  voltage sources

 subckt                                          xopamp       xopamp      
 element    0:vvdd       0:vvcm       0:vin1       1:vbp1       1:vbp2    
  volts      1.800000   900.000000m    0.           1.210000     1.230000 
  current   -1.032167m    0.           0.           0.           0.       
  power      1.857901m    0.           0.           0.           0.       

 subckt   xopamp      
 element    1:vbn     
  volts    370.000000m
  current    0.       
  power      0.       

     total voltage source power dissipation=    1.857901m     watts



 **** resistors

 subckt   xopamp       xopamp      
 element    1:rzn        1:rzp     
  r value    4.340000k    4.340000k
  v drop  -111.022302a    0.       
  current -2.55812e-20    0.       
  power      0.           0.       


 **** voltage-controlled voltage sources


 subckt                                         
 element    0:ein1       0:ein2       0:eout    
  volts      0.           0.         -12.562092n
  current    0.           0.          12.562092f





 **** mosfets


 subckt   xopamp       xopamp       xopamp       xopamp       xopamp      
 element    1:m5         1:m1         1:m2         1:m4         1:m3      
 model      0:p_18.1     0:p_18.1     0:p_18.1     0:n_18.1     0:n_18.1  
 region     Saturation   Saturation   Saturation   Saturation   Saturation
  id       -23.899121u  -11.949554u  -11.949554u   11.949559u   11.949559u
  ibs      3.82449e-21  1.53823e-21  1.53823e-21 -2.50806e-21 -2.50806e-21
  ibd      221.675355a   13.016067f   13.016067f   -3.955269f   -3.955269f
  vgs     -590.000000m -520.874673m -520.874673m  370.000000m  370.000000m
  vds     -379.125327m -876.320318m -876.320319m  544.554354m  544.554355m
  vbs        0.           0.           0.           0.           0.       
  vth     -532.168636m -468.433157m -468.433157m  325.282056m  325.282056m
  vdsat   -128.824198m  -86.696997m  -86.696997m   78.582904m   78.582904m
  vod      -57.831364m  -52.441516m  -52.441516m   44.717944m   44.717944m
  beta       4.603662m    4.093091m    4.093091m    4.958143m    4.958143m
  gam eff  557.084609m  557.084656m  557.084656m  507.445924m  507.445924m
  gm       352.873689u  202.309781u  202.309781u  221.370099u  221.370099u
  gds       13.423650u  142.704264n  142.704264n    1.205732u    1.205732u
  gmb      104.276529u   61.913165u   61.913165u   45.588127u   45.588127u
  cdtot      9.524173f  265.412330f  265.412330f   98.600787f   98.600787f
  cgtot     13.308185f    5.839228p    5.839228p    1.805356p    1.805356p
  cstot     18.799355f    6.230739p    6.230739p    1.810649p    1.810649p
  cbtot     17.781625f    2.583958p    2.583958p  690.092372f  690.092372f
  cgs        9.387499f    4.982822p    4.982822p    1.548374p    1.548374p
  cgd        2.698359f   86.348412f   86.348412f   24.064651f   24.064651f



 subckt   xopamp       xopamp       xopamp       xopamp      
 element    1:m6         1:m8         1:m7         1:m9      
 model      0:p_18.1     0:p_18.1     0:n_18.1     0:n_18.1  
 region     Saturation   Saturation   Saturation   Saturation
  id      -504.133918u -504.133916u  504.133922u  504.133920u
  ibs      6.60748e-20  6.60748e-20 -1.07108e-19 -1.07108e-19
  ibd        6.488461f    6.488461f   -4.579718f   -4.579718f
  vgs     -570.000000m -570.000000m  544.554355m  544.554354m
  vds     -903.264136m -903.264123m  896.735864m  896.735877m
  vbs        0.           0.           0.           0.       
  vth     -504.747495m -504.747495m  489.391226m  489.391226m
  vdsat   -132.614921m -132.614921m  114.002902m  114.002902m
  vod      -65.252505m  -65.252505m   55.163129m   55.163128m
  beta      74.124640m   74.124640m   98.654318m   98.654318m
  gam eff  557.084590m  557.084590m  507.446502m  507.446502m
  gm         7.172342m    7.172342m    7.337111m    7.337111m
  gds      178.753217u  178.753217u  274.685113u  274.685111u
  gmb        2.110932m    2.110932m    1.086193m    1.086193m
  cdtot    125.570356f  125.570356f   64.157121f   64.157121f
  cgtot    202.022920f  202.022920f   87.337779f   87.337779f
  cstot    281.575511f  281.575511f  124.703991f  124.703991f
  cbtot    245.105657f  245.105657f  118.401897f  118.401896f
  cgs      143.958720f  143.958720f   60.157384f   60.157384f
  cgd       40.379180f   40.379180f   18.257965f   18.257965f



 ******  
 * fully differential operational amplifier design ****

  ******  transient analysis tnom=  25.000 temp=  27.000 *****
 slew_rate= 150.742837x

          ***** job concluded
1****** HSPICE -- C-2009.09 32-BIT (Aug 24 2009) winnt ******                   
 ******  
 * fully differential operational amplifier design ****

  ******  job statistics summary tnom=  25.000 temp=  27.000 *****

  ******  HSPICE Threads Information  ******

  Command Line Threads Count                  :     1
  Available CPU Count                         :    12
  Actual Model Evaluation(Load) Threads Count :     1
  Actual Solver Threads Count                 :     1


  ******  Circuit Statistics  ******
  # nodes       =      35 # elements   =      25
  # resistors   =       3 # capacitors =       4 # inductors   =       0
  # mutual_inds =       0 # vccs       =       0 # vcvs        =       3
  # cccs        =       0 # ccvs       =       0 # volt_srcs   =       6
  # curr_srcs   =       0 # diodes     =       0 # bjts        =       0
  # jfets       =       0 # mosfets    =       9 # U elements  =       0
  # T elements  =       0 # W elements =       0 # B elements  =       0
  # S elements  =       0 # P elements =       0 # va device   =       0


  ******  Runtime Statistics (seconds)  ******

  analysis           time    # points   tot. iter  conv.iter
  op point           0.01           1          50
  transient          0.04       40001         271         101 rev=         9
  readin             0.07
  errchk             0.01
  setup              0.01
  output             0.00


           total memory used          345  kbytes
           total cpu time            0.16 seconds
           total elapsed time        0.19 seconds
           job started at     09:15:40 03/20/2024
           job ended   at     09:15:40 03/20/2024


  lic: Release hspice token(s) 
