 ****** HSPICE -- C-2009.09 32-BIT (Aug 24 2009) winnt ******                   
  Copyright (C) 2009 Synopsys, Inc. All Rights Reserved.                        
  Unpublished-rights reserved under US copyright laws.
  This program is protected by law and is subject to the 
  terms and conditions of the license agreement from Synopsys.
  Use of this program is your acceptance to be bound by the 
  license agreement. HSPICE is the trademark of Synopsys, Inc.
  Input File: e:\jason\whyee\semeter\analogic\two_stage_opamp\tran_sim_template.
  lic:  
  lic: FLEXlm: v8.5b 
  lic: USER:   jason                HOSTNAME: DESKTOP-NP05V42 
  lic: HOSTID: "a8a159b72f8e 00155d37aea6 001a7dda7113 0a0027000009 7a8cb58aa976
  
  lic: Using FLEXlm license file: 
  lic: 27000@localhost 
  lic: Checkout 1 hspice 
  lic: License/Maintenance for hspice will expire on 31-dec-2028/2008.120 
  lic: FLOATING license(s) on SERVER localhost 
  lic:   
 Init: read install configuration file: C:\synopsys\Hspice_C-2009.09\meta.cfg
1****** HSPICE -- C-2009.09 32-BIT (Aug 24 2009) winnt ******                   
 ******  
 * fully differential operational amplifier design ****

  ******  circuit name directory
 circuit number to circuit name directory
   number circuitname                     definition         multiplier
        0 main circuit
        1 xopamp.                         opamp              1.00 
  **warning** (e:\jason\whyee\semeter\analogic\two_stage_opamp\tran_sim_template.sp:28) dc voltage reset to initial transient source value              in source        0:vin1                new dc=  0.0000D+00
 

 

 **warning** the following singular supplies were terminated to 1 meg resistor 
   supply       node1            node2
  eout                    0:out              defined in subckt 0                     0:0                defined in subckt 0               
      
 *****************************************************************
 ******  option summary
 ******
 runlvl  = 6         bypass  = 2         
  Opening plot unit= 79
 file=e:\jason\whyee\semeter\analogic\two_stage_opamp\tran_sim_template.pa0    

1****** HSPICE -- C-2009.09 32-BIT (Aug 24 2009) winnt ******                   
 ******  
 * fully differential operational amplifier design ****

  ******  operating point information tnom=  25.000 temp=  27.000 *****
 ***** operating point status is all       simulation time is     0.       
    node    =voltage        node    =voltage        node    =voltage

 +0:in      =   0.        0:out     =  -7.746670n 0:vcm     = 900.000000m
 +0:vdd     =   1.800000  0:vin     = 900.000000m 0:vip     = 900.000000m
 +0:von     = 881.054692m 0:vop     = 881.054685m 1:n1      =   1.509619 
 +1:nrcn    = 703.599184m 1:nrcp    = 703.599184m 1:vbn     = 554.000000m
 +1:vbp1    =   1.172000  1:vbp2    =   1.186000  1:von1    = 703.599184m
 +1:vop1    = 703.599184m


 ****  voltage sources

 subckt                                          xopamp       xopamp      
 element    0:vvdd       0:vvcm       0:vin1       1:vbp1       1:vbp2    
  volts      1.800000   900.000000m    0.           1.172000     1.186000 
  current -272.906576u    0.           0.           0.           0.       
  power    491.231836u    0.           0.           0.           0.       

 subckt   xopamp      
 element    1:vbn     
  volts    554.000000m
  current    0.       
  power      0.       

     total voltage source power dissipation=  491.231836u     watts



 **** resistors

 subckt   xopamp       xopamp      
 element    1:rzn        1:rzp     
  r value    6.300000k    6.300000k
  v drop     0.           0.       
  current    0.           0.       
  power      0.           0.       


 **** voltage-controlled voltage sources


 subckt                                         
 element    0:ein1       0:ein2       0:eout    
  volts      0.           0.          -7.746670n
  current    0.           0.           7.746670f





 **** mosfets


 subckt   xopamp       xopamp       xopamp       xopamp       xopamp      
 element    1:m5         1:m1         1:m2         1:m3         1:m4      
 model      0:p_18.1     0:p_18.1     0:p_18.1     0:n_18.1     0:n_18.1  
 region     Saturation   Saturation   Saturation   Saturation   Saturation
  id       -19.490605u   -9.745300u   -9.745300u    9.745300u    9.745300u
  ibs      3.01166e-21  1.31636e-21  1.31636e-21 -3.15467e-21 -3.15467e-21
  ibd      196.300019a    1.570293f    1.570293f -385.442855a -385.442855a
  vgs     -628.000000m -609.618533m -609.618533m  554.000000m  554.000000m
  vds     -290.381467m -806.019349m -806.019350m  703.599184m  703.599184m
  vbs        0.           0.           0.           0.           0.       
  vth     -530.132504m -481.467989m -481.467989m  355.500768m  355.500768m
  vdsat   -141.732434m -137.384017m -137.384017m  180.271411m  180.271411m
  vod      -97.867496m -128.150544m -128.150544m  198.499232m  198.499232m
  beta       2.597508m    1.066394m    1.066394m  528.824003u  528.824003u
  gam eff  557.084624m  557.084652m  557.084652m  507.446076m  507.446076m
  gm       255.022036u  116.240529u  116.240529u   86.757568u   86.757568u
  gds        6.428309u  228.762110n  228.762110n  801.095479n  801.095479n
  gmb       74.301486u   35.652890u   35.652890u   16.953843u   16.953843u
  cdtot     11.654684f   33.795966f   33.795966f    4.910338f    4.910338f
  cgtot     19.876983f  381.499440f  381.499440f   47.276776f   47.276776f
  cstot     26.538045f  433.047588f  433.047588f   50.772531f   50.772531f
  cbtot     22.250316f  174.797089f  174.797089f   19.497076f   19.497076f
  cgs       15.207598f  340.695672f  340.695672f   42.379372f   42.379372f
  cgd        3.293871f   10.808010f   10.808010f    1.217788f    1.217788f



 subckt   xopamp       xopamp       xopamp       xopamp      
 element    1:m6         1:m8         1:m7         1:m9      
 model      0:p_18.1     0:p_18.1     0:n_18.1     0:n_18.1  
 region     Saturation   Saturation   Saturation   Saturation
  id      -126.707981u -126.707981u  126.707981u  126.707981u
  ibs      1.66385e-20  1.66385e-20 -3.69270e-20 -3.69270e-20
  ibd        3.132760f    3.132759f -594.976566a -594.976571a
  vgs     -614.000000m -614.000000m  703.599184m  703.599184m
  vds     -918.945315m -918.945308m  881.054685m  881.054692m
  vbs        0.           0.           0.           0.       
  vth     -512.344124m -512.344124m  475.749518m  475.749518m
  vdsat   -141.184250m -141.184250m  215.861981m  215.861981m
  vod     -101.655876m -101.655876m  227.849666m  227.849666m
  beta      14.673751m   14.673751m    4.645178m    4.645178m
  gam eff  557.084621m  557.084621m  507.447447m  507.447447m
  gm         1.644778m    1.644778m  909.081387u  909.081387u
  gds       17.134332u   17.134332u   21.829758u   21.829758u
  gmb      489.392897u  489.392896u  156.556324u  156.556324u
  cdtot     59.359832f   59.359832f    6.404111f    6.404111f
  cgtot    123.028964f  123.028964f   13.029693f   13.029693f
  cstot    161.895444f  161.895444f   17.036088f   17.036088f
  cbtot    122.392846f  122.392846f   12.868919f   12.868919f
  cgs       95.567843f   95.567843f   10.270309f   10.270309f
  cgd       19.376017f   19.376017f    1.746207f    1.746207f



 ******  
 * fully differential operational amplifier design ****

  ******  transient analysis tnom=  25.000 temp=  27.000 *****
 slew_rate= 130.788455x

          ***** job concluded
1****** HSPICE -- C-2009.09 32-BIT (Aug 24 2009) winnt ******                   
 ******  
 * fully differential operational amplifier design ****

  ******  job statistics summary tnom=  25.000 temp=  27.000 *****

  ******  HSPICE Threads Information  ******

  Command Line Threads Count                  :     1
  Available CPU Count                         :    12
  Actual Model Evaluation(Load) Threads Count :     1
  Actual Solver Threads Count                 :     1


  ******  Circuit Statistics  ******
  # nodes       =      35 # elements   =      25
  # resistors   =       3 # capacitors =       4 # inductors   =       0
  # mutual_inds =       0 # vccs       =       0 # vcvs        =       3
  # cccs        =       0 # ccvs       =       0 # volt_srcs   =       6
  # curr_srcs   =       0 # diodes     =       0 # bjts        =       0
  # jfets       =       0 # mosfets    =       9 # U elements  =       0
  # T elements  =       0 # W elements =       0 # B elements  =       0
  # S elements  =       0 # P elements =       0 # va device   =       0


  ******  Runtime Statistics (seconds)  ******

  analysis           time    # points   tot. iter  conv.iter
  op point           0.01           1          51
  transient          0.02       40001         242          92 rev=         7
  readin             0.05
  errchk             0.00
  setup              0.01
  output             0.00


           total memory used          345  kbytes
           total cpu time            0.09 seconds
           total elapsed time        0.12 seconds
           job started at     11:28:07 03/09/2024
           job ended   at     11:28:07 03/09/2024


  lic: Release hspice token(s) 
